
SetupTitle, Ping-Hsun FET Id-Vg
ApplicationTest, Ping-Hsun FET Id-Vg, Public
TestParameter, Name, Gate, Source, Drain, VgStart, VgStop, VgStep, Vs, VdStart, VdStop, VdStep, IgLimit, IntegTime, HoldTime, DelayTime, DrainMinRng
TestParameter, Value, SMU3:MP	MPSMU, SMU1:MP	MPSMU, SMU2:MP	MPSMU, 80, -80, -2, 0, -80, -80, 0, 0.01, MEDIUM, 0, 0, 1uA
DutParameter, Name, Polarity, Temp, IdMax
DutParameter, Value, 1, 25, 0.01
MetaData, TestRecord.EntryPoint, true
MetaData, TestRecord.RecordTime, 07/13/2022 10:37:00
MetaData, TestRecord.TestTarget, HZ_1.12_5gL_3_ch3
MetaData, TestRecord.IterationIndex, 5
MetaData, TestRecord.Preservation, true
MetaData, TestRecord.Flag, 
MetaData, TestRecord.Remarks, 
MetaData, TestRecord.LinkKey, 4810adb9-1094-4e6b-80f4-0f54eb4981a2
Dimension1, 162, 162, 162, 162, 162, 162, 162
Dimension2, 1, 1, 1, 1, 1, 1, 1
DataName, Vgate, Vdrain, Vsource, Igate, Isource, Idrain, gm
DataValue, 80, -80, 0, 8.01195E-07, -3.917E-07, -2.07654E-07, -2.103499999999999E-08
DataValue, 78, -80, 0, 4.87835E-07, -2.95587E-07, -1.65584E-07, -1.5630249999999995E-08
DataValue, 76, -80, 0, 4.1891E-07, -2.6298E-07, -1.45133E-07, -8.1185000000000009E-09
DataValue, 74, -80, 0, 3.8269299999999997E-07, -2.44103E-07, -1.3311E-07, -5.0860000000000033E-09
DataValue, 72, -80, 0, 3.6245599999999997E-07, -2.31827E-07, -1.24789E-07, -2.9185000000000006E-09
DataValue, 70, -80, 0, 3.45879E-07, -2.2245099999999999E-07, -1.21436E-07, -1.6004999999999984E-09
DataValue, 68, -80, 0, 3.36344E-07, -2.15623E-07, -1.18387E-07, -1.1877500000000002E-09
DataValue, 66, -80, 0, 3.26561E-07, -2.10366E-07, -1.16685E-07, -4.1924999999999894E-10
DataValue, 64, -80, 0, 3.22031E-07, -2.0461E-07, -1.1671E-07, 2.562499999999994E-10
DataValue, 62, -80, 0, 3.13987E-07, -1.98948E-07, -1.1771E-07, 8.279999999999959E-10
DataValue, 60, -80, 0, 3.15012E-07, -1.93725E-07, -1.20022E-07, 1.4505000000000003E-09
DataValue, 58, -80, 0, 3.11065E-07, -1.84626E-07, -1.23512E-07, 3.2595000000000035E-09
DataValue, 56, -80, 0, 3.08468E-07, -1.73077E-07, -1.3306E-07, 5.9660000000000019E-09
DataValue, 54, -80, 0, 3.06745E-07, -1.57326E-07, -1.47376E-07, 8.0462499999999983E-09
DataValue, 52, -80, 0, 3.03299E-07, -1.3759E-07, -1.65245E-07, 1.1664749999999999E-08
DataValue, 50, -80, 0, 3.03668E-07, -1.0671999999999999E-07, -1.94035E-07, 1.65395E-08
DataValue, 48, -80, 0, 3.0071E-07, -6.81651E-08, -2.31403E-07, 2.1737249999999992E-08
DataValue, 46, -80, 0, 2.96489E-07, -1.6136399999999998E-08, -2.8098399999999997E-07, 2.8741499999999993E-08
DataValue, 44, -80, 0, 2.94443E-07, 5.1731699999999993E-08, -3.4636899999999997E-07, 3.7571250000000006E-08
DataValue, 42, -80, 0, 2.91777E-07, 1.39252E-07, -4.31269E-07, 4.8249250000000004E-08
DataValue, 40, -80, 0, 2.89059E-07, 2.50407E-07, -5.39366E-07, 6.052674999999999E-08
DataValue, 38, -80, 0, 2.85272E-07, 3.8837E-07, -6.73376E-07, 7.3933250000000011E-08
DataValue, 36, -80, 0, 2.81969E-07, 5.5301E-07, -8.35099E-07, 8.933525E-08
DataValue, 34, -80, 0, 2.77328E-07, 7.52615E-07, -1.030717E-06, 1.0652525000000002E-07
DataValue, 32, -80, 0, 2.73414E-07, 9.89222E-07, -1.2612E-06, 1.2661075000000007E-07
DataValue, 30, -80, 0, 2.66111E-07, 1.27121E-06, -1.5371600000000003E-06, 1.5016500000000005E-07
DataValue, 28, -80, 0, 2.57463E-07, 1.6051400000000001E-06, -1.8618600000000003E-06, 1.7524750000000002E-07
DataValue, 26, -80, 0, 2.4759E-07, 1.99125E-06, -2.2381500000000003E-06, 2.0225500000000003E-07
DataValue, 24, -80, 0, 2.36996E-07, 2.43444E-06, -2.6708800000000004E-06, 2.3410500000000004E-07
DataValue, 22, -80, 0, 2.24966E-07, 2.9403600000000004E-06, -3.1745700000000005E-06, 2.66515E-07
DataValue, 20, -80, 0, 2.0949399999999998E-07, 3.5247000000000003E-06, -3.7369400000000004E-06, 2.9779999999999993E-07
DataValue, 18, -80, 0, 2.00409E-07, 4.16756E-06, -4.36577E-06, 3.3430750000000012E-07
DataValue, 16, -80, 0, 1.79174E-07, 4.8874600000000008E-06, -5.0741700000000009E-06, 3.7339500000000017E-07
DataValue, 14, -80, 0, 1.63154E-07, 5.6912000000000007E-06, -5.8593500000000009E-06, 4.1366999999999997E-07
DataValue, 12, -80, 0, 1.41882E-07, 6.58501E-06, -6.7288500000000008E-06, 4.5827000000000015E-07
DataValue, 10, -80, 0, 1.2176999999999999E-07, 7.5693200000000011E-06, -7.6924300000000015E-06, 5.073924999999999E-07
DataValue, 8, -80, 0, 9.8875999999999992E-08, 8.648340000000001E-06, -8.75842E-06, 5.546275E-07
DataValue, 6, -80, 0, 7.73504E-08, 9.8336900000000014E-06, -9.9109400000000014E-06, 6.0257750000000008E-07
DataValue, 4, -80, 0, 5.7180899999999996E-08, 1.11035E-05, -1.116873E-05, 6.561899999999999E-07
DataValue, 2, -80, 0, 3.74556E-08, 1.24974E-05, -1.2535700000000001E-05, 6.938675000000001E-07
DataValue, 0, -80, 0, 6.1335099999999992E-08, 1.38914E-05, -1.3944200000000001E-05, 7.5085000000000019E-07
DataValue, -2, -80, 0, 1.144118E-08, 1.55152E-05, -1.5539100000000002E-05, 8.3394999999999987E-07
DataValue, -4, -80, 0, -4.35886E-08, 1.73134E-05, -1.728E-05, 9.0202500000000006E-07
DataValue, -6, -80, 0, -8.8329E-08, 1.9221400000000002E-05, -1.9147200000000002E-05, 9.6582500000000019E-07
DataValue, -8, -80, 0, -1.44504E-07, 2.12717E-05, -2.11433E-05, 1.0297499999999998E-06
DataValue, -10, -80, 0, -1.9373799999999998E-07, 2.34542E-05, -2.32662E-05, 1.097825E-06
DataValue, -12, -80, 0, -2.52865E-07, 2.5779200000000002E-05, -2.55346E-05, 1.1698000000000002E-06
DataValue, -14, -80, 0, -3.14495E-07, 2.82435E-05, -2.7945400000000002E-05, 1.2405750000000004E-06
DataValue, -16, -80, 0, -3.83964E-07, 3.08598E-05, -3.0496900000000003E-05, 1.3070000000000004E-06
DataValue, -18, -80, 0, -4.59929E-07, 3.36228E-05, -3.31734E-05, 1.3766749999999998E-06
DataValue, -20, -80, 0, -5.42443E-07, 3.6529E-05, -3.60036E-05, 1.4576999999999996E-06
DataValue, -22, -80, 0, -6.29433E-07, 3.9621E-05, -3.90042E-05, 1.5317249999999993E-06
DataValue, -24, -80, 0, -7.27582E-07, 4.28489E-05, -4.21305E-05, 1.5966749999999994E-06
DataValue, -26, -80, 0, -8.37663E-07, 4.6236E-05, -4.53909E-05, 1.6773500000000001E-06
DataValue, -28, -80, 0, -9.49099E-07, 4.97684E-05, -4.88399E-05, 1.7590250000000013E-06
DataValue, -30, -80, 0, -1.09219E-06, 5.3517400000000004E-05, -5.2427000000000005E-05, 1.8382500000000006E-06
DataValue, -32, -80, 0, -1.31269E-06, 5.7429800000000004E-05, -5.61929E-05, 1.9186999999999991E-06
DataValue, -34, -80, 0, -1.4819700000000002E-06, 6.1486300000000008E-05, -6.01018E-05, 2.0108249999999995E-06
DataValue, -36, -80, 0, -1.6505500000000002E-06, 6.58006E-05, -6.42362E-05, 2.0899500000000019E-06
DataValue, -38, -80, 0, -1.8258000000000002E-06, 7.02231E-05, -6.8461600000000009E-05, 2.1745000000000009E-06
DataValue, -40, -80, 0, -2.00685E-06, 7.49383E-05, -7.29342E-05, 2.27455E-06
DataValue, -42, -80, 0, -2.2164E-06, 7.97591E-05, -7.7559800000000009E-05, 2.381424999999999E-06
DataValue, -44, -80, 0, -2.41087E-06, 8.462770000000001E-05, -8.24599E-05, 2.421949999999998E-06
DataValue, -46, -80, 0, -2.6338200000000002E-06, 8.98347E-05, -8.72476E-05, 2.4805749999999995E-06
DataValue, -48, -80, 0, -2.86181E-06, 9.5179E-05, -9.23822E-05, 2.6112250000000014E-06
DataValue, -50, -80, 0, -3.0884000000000004E-06, 0.0001007139, -9.7692500000000007E-05, 2.6622750000000015E-06
DataValue, -52, -80, 0, -3.36246E-06, 0.0001063295, -0.0001030313, 2.788924999999998E-06
DataValue, -54, -80, 0, -3.6323300000000003E-06, 0.0001121297, -0.0001088482, 2.8441750000000006E-06
DataValue, -56, -80, 0, -3.85104E-06, 0.00011819, -0.000114408, 2.876950000000003E-06
DataValue, -58, -80, 0, -4.2016500000000007E-06, 0.00012453600000000002, -0.00012035600000000001, 2.9319999999999984E-06
DataValue, -60, -80, 0, -4.5864100000000005E-06, 0.00013120000000000002, -0.000126136, 3.0262499999999983E-06
DataValue, -62, -80, 0, -4.8519700000000007E-06, 0.00013743700000000002, -0.000132461, 3.1857500000000025E-06
DataValue, -64, -80, 0, -5.21017E-06, 0.00014442100000000002, -0.000138879, 3.2110000000000003E-06
DataValue, -66, -80, 0, -5.4081800000000005E-06, 0.00015083000000000002, -0.000145305, 3.2437500000000009E-06
DataValue, -68, -80, 0, -5.7904000000000005E-06, 0.000158244, -0.000151854, 3.417499999999999E-06
DataValue, -70, -80, 0, -6.1778500000000005E-06, 0.000164971, -0.000158975, 3.387500000000001E-06
DataValue, -72, -80, 0, -6.6305200000000009E-06, 0.00017218300000000002, -0.00016540400000000002, 3.391500000000003E-06
DataValue, -74, -80, 0, -7.0447000000000005E-06, 0.00017952400000000003, -0.00017254100000000001, 3.4904999999999965E-06
DataValue, -76, -80, 0, -7.4900300000000007E-06, 0.00018724600000000002, -0.000179366, 3.5830000000000028E-06
DataValue, -78, -80, 0, -7.99887E-06, 0.000195052, -0.00018687300000000003, 3.7275000000000012E-06
DataValue, -80, -80, 0, -8.53899E-06, 0.000202797, -0.000194276, 3.3229999999999951E-06
DataValue, -80, -80, 0, -8.4155300000000014E-06, 0.00020193200000000002, -0.00019351900000000002, 4.7515000000000036E-06
DataValue, -78, -80, 0, -7.5462100000000005E-06, 0.00019248100000000002, -0.000184773, 4.3659999999999985E-06
DataValue, -76, -80, 0, -7.0425200000000005E-06, 0.00018319400000000002, -0.00017605500000000002, 4.1742499999999948E-06
DataValue, -74, -80, 0, -6.5019100000000011E-06, 0.00017467400000000002, -0.00016807600000000002, 3.97575E-06
DataValue, -72, -80, 0, -6.0679700000000006E-06, 0.00016664900000000002, -0.00016015200000000002, 3.8742500000000011E-06
DataValue, -70, -80, 0, -5.69324E-06, 0.000158615, -0.00015257900000000002, 3.628E-06
DataValue, -68, -80, 0, -5.2286200000000008E-06, 0.000151132, -0.00014564000000000002, 3.5267500000000048E-06
DataValue, -66, -80, 0, -4.82977E-06, 0.00014350000000000002, -0.000138472, 3.51225E-06
DataValue, -64, -80, 0, -4.4578600000000007E-06, 0.000136426, -0.00013159100000000002, 3.356749999999998E-06
DataValue, -62, -80, 0, -4.13447E-06, 0.000129465, -0.000125045, 3.2282500000000042E-06
DataValue, -60, -80, 0, -3.8114400000000003E-06, 0.000122788, -0.000118678, 3.0942499999999984E-06
DataValue, -58, -80, 0, -3.5066500000000006E-06, 0.00011631, -0.00011266800000000001, 2.9612499999999981E-06
DataValue, -56, -80, 0, -3.1921500000000004E-06, 0.000110159, -0.00010683300000000001, 2.9550000000000014E-06
DataValue, -54, -80, 0, -2.93191E-06, 0.00010408300000000001, -0.00010084800000000001, 2.8685500000000015E-06
DataValue, -52, -80, 0, -2.66854E-06, 9.82068E-05, -9.53588E-05, 2.717175E-06
DataValue, -50, -80, 0, -2.42049E-06, 9.2569500000000009E-05, -8.9979300000000008E-05, 2.6038750000000022E-06
DataValue, -48, -80, 0, -2.1785900000000003E-06, 8.72112E-05, -8.49433E-05, 2.4887750000000006E-06
DataValue, -46, -80, 0, -1.9669E-06, 8.20117E-05, -8.00242E-05, 2.4291499999999969E-06
DataValue, -44, -80, 0, -1.7864300000000002E-06, 7.70291E-05, -7.5226700000000009E-05, 2.3722249999999991E-06
DataValue, -42, -80, 0, -1.5802400000000002E-06, 7.2380000000000008E-05, -7.0535300000000009E-05, 2.2748750000000025E-06
DataValue, -40, -80, 0, -1.4026500000000002E-06, 6.76825E-05, -6.61272E-05, 2.1539500000000033E-06
DataValue, -38, -80, 0, -1.235E-06, 6.32533E-05, -6.19195E-05, 2.072E-06
DataValue, -36, -80, 0, -1.134856E-06, 5.9152E-05, -5.78392E-05, 1.9790249999999992E-06
DataValue, -34, -80, 0, -1.042287E-06, 5.5075600000000005E-05, -5.40034E-05, 1.8984749999999988E-06
DataValue, -32, -80, 0, -9.20872E-07, 5.12074E-05, -5.0245300000000005E-05, 1.825949999999999E-06
DataValue, -30, -80, 0, -8.05191E-07, 4.7609000000000004E-05, -4.66996E-05, 1.7213000000000016E-06
DataValue, -28, -80, 0, -6.94808E-07, 4.40627E-05, -4.33601E-05, 1.63945E-06
DataValue, -26, -80, 0, -5.8101E-07, 4.07223E-05, -4.01418E-05, 1.5811499999999993E-06
DataValue, -24, -80, 0, -4.89633E-07, 3.7490900000000004E-05, -3.70355E-05, 1.5132500000000011E-06
DataValue, -22, -80, 0, -3.81628E-07, 3.44813E-05, -3.40888E-05, 1.4252249999999996E-06
DataValue, -20, -80, 0, -2.90982E-07, 3.16581E-05, -3.13346E-05, 1.3356999999999989E-06
DataValue, -18, -80, 0, -2.13561E-07, 2.8992E-05, -2.8746000000000002E-05, 1.2666000000000007E-06
DataValue, -16, -80, 0, -1.37296E-07, 2.64427E-05, -2.62682E-05, 1.20025E-06
DataValue, -14, -80, 0, -7.8609299999999989E-08, 2.4050200000000002E-05, -2.3945000000000002E-05, 1.1232249999999997E-06
DataValue, -12, -80, 0, -1.8025299999999997E-08, 2.1815800000000002E-05, -2.17753E-05, 1.053425E-06
DataValue, -10, -80, 0, 3.6367099999999996E-08, 1.97156E-05, -1.9731300000000002E-05, 9.8769999999999988E-07
DataValue, -8, -80, 0, 8.7484999999999992E-08, 1.77579E-05, -1.7824500000000002E-05, 9.2180000000000022E-07
DataValue, -6, -80, 0, 1.30041E-07, 1.59307E-05, -1.60441E-05, 8.5800000000000051E-07
DataValue, -4, -80, 0, 1.66771E-07, 1.4244000000000001E-05, -1.43925E-05, 7.9572500000000033E-07
DataValue, -2, -80, 0, 1.92481E-07, 1.2688700000000001E-05, -1.28612E-05, 7.3407499999999983E-07
DataValue, 0, -80, 0, 2.10583E-07, 1.12623E-05, -1.14562E-05, 6.7752499999999992E-07
DataValue, 2, -80, 0, 2.2487E-07, 9.9439700000000013E-06, -1.01511E-05, 6.2339249999999972E-07
DataValue, 4, -80, 0, 2.34761E-07, 8.7425000000000014E-06, -8.9626300000000016E-06, 5.67075E-07
DataValue, 6, -80, 0, 2.47629E-07, 7.65195E-06, -7.8828E-06, 5.1441500000000031E-07
DataValue, 8, -80, 0, 2.58249E-07, 6.6514900000000008E-06, -6.90497E-06, 4.6607999999999995E-07
DataValue, 10, -80, 0, 2.69519E-07, 5.74751E-06, -6.01848E-06, 4.2209999999999995E-07
DataValue, 12, -80, 0, 2.78814E-07, 4.9502400000000007E-06, -5.2165700000000006E-06, 3.7960750000000003E-07
DataValue, 14, -80, 0, 2.83253E-07, 4.2196E-06, -4.50005E-06, 3.4015750000000014E-07
DataValue, 16, -80, 0, 2.95791E-07, 3.5725100000000004E-06, -3.85594E-06, 3.0270999999999994E-07
DataValue, 18, -80, 0, 2.96911E-07, 2.99773E-06, -3.2892100000000005E-06, 2.670099999999999E-07
DataValue, 20, -80, 0, 3.02428E-07, 2.4930100000000004E-06, -2.7879000000000004E-06, 2.3487250000000005E-07
DataValue, 22, -80, 0, 3.04208E-07, 2.05024E-06, -2.3497200000000003E-06, 2.0528750000000004E-07
DataValue, 24, -80, 0, 3.09361E-07, 1.66354E-06, -1.9667500000000003E-06, 1.787775E-07
DataValue, 26, -80, 0, 3.08712E-07, 1.3319700000000001E-06, -1.6346100000000003E-06, 1.5443750000000004E-07
DataValue, 28, -80, 0, 3.1315399999999997E-07, 1.04509E-06, -1.3490000000000001E-06, 1.3142500000000003E-07
DataValue, 30, -80, 0, 3.11265E-07, 8.03521E-07, -1.1089100000000002E-06, 1.1102400000000003E-07
DataValue, 32, -80, 0, 3.06688E-07, 6.02894E-07, -9.04904E-07, 9.3416250000000054E-08
DataValue, 34, -80, 0, 3.05058E-07, 4.31494E-07, -7.3524499999999994E-07, 7.8087E-08
DataValue, 36, -80, 0, 3.0311199999999997E-07, 2.92283E-07, -5.92556E-07, 6.4586749999999988E-08
DataValue, 38, -80, 0, 2.9984599999999997E-07, 1.79881E-07, -4.76898E-07, 5.1947000000000008E-08
DataValue, 40, -80, 0, 2.98198E-07, 8.6835099999999989E-08, -3.8476799999999997E-07, 4.1298000000000004E-08
DataValue, 42, -80, 0, 2.9809699999999997E-07, 1.3526399999999998E-08, -3.1170599999999997E-07, 3.2826499999999993E-08
DataValue, 44, -80, 0, 2.97213E-07, -4.3886399999999995E-08, -2.53462E-07, 2.5037749999999995E-08
DataValue, 46, -80, 0, 2.97043E-07, -8.6284599999999986E-08, -2.11555E-07, 1.8853999999999998E-08
DataValue, 48, -80, 0, 2.9860699999999997E-07, -1.18845E-07, -1.78046E-07, 1.4679749999999996E-08
DataValue, 50, -80, 0, 2.95898E-07, -1.4295E-07, -1.52836E-07, 1.0396750000000003E-08
DataValue, 52, -80, 0, 2.95163E-07, -1.59438E-07, -1.36459E-07, 7.1872500000000037E-09
DataValue, 54, -80, 0, 2.94441E-07, -1.6995199999999999E-07, -1.24087E-07, 5.5905E-09
DataValue, 56, -80, 0, 2.9484E-07, -1.75795E-07, -1.1409699999999999E-07, 2.2214999999999978E-09
DataValue, 58, -80, 0, 2.95801E-07, -1.8122699999999999E-07, -1.15201E-07, 1.166249999999999E-09
DataValue, 60, -80, 0, 2.90405E-07, -1.8617399999999998E-07, -1.09432E-07, 2.616499999999999E-09
DataValue, 62, -80, 0, 2.9695199999999997E-07, -1.85424E-07, -1.04735E-07, 7.5799999999999924E-10
DataValue, 64, -80, 0, 2.92312E-07, -1.88063E-07, -1.064E-07, 2.72250000000001E-10
DataValue, 66, -80, 0, 2.93545E-07, -1.89017E-07, -1.03646E-07, 2.72250000000001E-10
DataValue, 68, -80, 0, 2.93268E-07, -1.87817E-07, -1.05311E-07, 3.1249999999999039E-11
DataValue, 70, -80, 0, 2.9291099999999997E-07, -1.89448E-07, -1.03521E-07, 5.6249999999999925E-10
DataValue, 72, -80, 0, 2.8795E-07, -1.8990899999999998E-07, -1.03061E-07, 2.9025000000000156E-10
DataValue, 74, -80, 0, 2.91661E-07, -1.9387699999999998E-07, -1.0236E-07, 2.1250000000000935E-11
DataValue, 76, -80, 0, 2.96936E-07, -1.93331E-07, -1.02976E-07, 2.6824999999999977E-10
DataValue, 78, -80, 0, 2.95148E-07, -1.90677E-07, -1.01287E-07, 3.7274999999999915E-10
DataValue, 80, -80, 0, 2.90635E-07, -1.91932E-07, -1.01485E-07, -9.8999999999999762E-11
SetupTitle, FET Id-Vg
PrimitiveTest, I/V Sweep
TestParameter, Context.MainFrame, 4155C
TestParameter, Channel.UnitType, SMU, SMU, SMU
TestParameter, Channel.Unit, Gate, Source, Drain
TestParameter, Channel.IName, Igate, Isource, Idrain
TestParameter, Channel.VName, Vgate, Vsource, Vdrain
TestParameter, Channel.Mode, V, V, V
TestParameter, Channel.Func, VAR1, CONST, VAR2
TestParameter, Channel.Index, 
TestParameter, Channel.Time, 
TestParameter, Measurement.Port.Unit, Gate, Source, Drain
TestParameter, Measurement.Port.SeriesResistor, NONE, NONE, NONE
TestParameter, Measurement.Port.Filter, OFF, OFF, OFF
TestParameter, Measurement.Primary.Locus, Double
TestParameter, Measurement.Primary.Scale, LINEAR
TestParameter, Measurement.Primary.Start, VgStart*Polarity
TestParameter, Measurement.Primary.Stop, VgStop*Polarity
TestParameter, Measurement.Primary.Step, VgStep*Polarity
TestParameter, Measurement.Primary.Compliance, IgLimit
TestParameter, Measurement.Primary.PowerCompliance, 0
TestParameter, Measurement.Aborting.Condition, CONTINUE AT ANY
TestParameter, Measurement.PostOutput.Value, START
TestParameter, Measurement.PostOutput.Retention, OFF
TestParameter, Measurement.Secondary.Start, VdStart*Polarity
TestParameter, Measurement.Secondary.Count, abs((VdStop-VdStart)/VdStep)+1
TestParameter, Measurement.Secondary.Step, cond(VdStart,VdStop,abs(VdStep)*Polarity,-abs(VdStep)*Polarity)
TestParameter, Measurement.Secondary.Compliance, IdMax
TestParameter, Measurement.Secondary.PowerCompliance, 0
TestParameter, Measurement.Bias.Source, VgStart*Polarity, Vs*Polarity, VdStart*Polarity
TestParameter, Measurement.Bias.Compliance, IgLimit, IdMax, IdMax
TestParameter, Measurement.Monitor.Unit, SMU:=Gate, SMU:=Source, SMU:=Drain
TestParameter, Measurement.Monitor.Adc, HR ADC, HR ADC, HR ADC
TestParameter, Measurement.Monitor.RangingMode, LIMITED, LIMITED, LIMITED
TestParameter, Measurement.Monitor.RangeBoundary, 1nA, 1nA, DrainMinRng
TestParameter, Measurement.Monitor.RangeRating, BY FULL RANGE, BY FULL RANGE, BY FULL RANGE
TestParameter, Measurement.Monitor.RangeRatingCoeff, 50, 50, 50
TestParameter, Measurement.Timing.Hold, HoldTime
TestParameter, Measurement.Timing.Delay, DelayTime
TestParameter, Measurement.Adc.HighResolution.AutoZero, ON
TestParameter, Measurement.Adc.HighResolution.Mode, IntegMode
TestParameter, Measurement.Adc.HighResolution.Coeff, AdcFactor
TestParameter, Measurement.Ag16440ASelector.SemiconductorRelay.Channel1, DEFAULT
TestParameter, Measurement.Ag16440ASelector.SemiconductorRelay.Channel3, DEFAULT
TestParameter, Function.User.Name, gm
TestParameter, Function.User.Unit, S
TestParameter, Function.User.Definition, diff(Idrain,Vgate)
TestParameter, Output.Graph.Enabled, true
TestParameter, Output.Graph.AutoScaling, false
TestParameter, Output.Graph.XAxis.Data, Vgate
TestParameter, Output.Graph.XAxis.Scale, Linear
TestParameter, Output.Graph.XAxis.Left, VgStart*Polarity
TestParameter, Output.Graph.XAxis.Right, VgStop*Polarity
TestParameter, Output.Graph.XAxis.RunTimeAutoScale, false
TestParameter, Output.Graph.YAxis.Data, Idrain, Igate, Vsource
TestParameter, Output.Graph.YAxis.Scale, Linear, Linear, Linear
TestParameter, Output.Graph.YAxis.Bottom, -0.0001, -0.1, -2
TestParameter, Output.Graph.YAxis.Top, IdMax*Polarity, 0.1, 2
TestParameter, Output.Graph.YAxis.Group, , , 
TestParameter, Output.Graph.YAxis.RunTimeAutoScale, true, false, false
