
SetupTitle, Ping-Hsun FET Id-Vg
ApplicationTest, Ping-Hsun FET Id-Vg, Public
TestParameter, Name, Gate, Source, Drain, VgStart, VgStop, VgStep, Vs, VdStart, VdStop, VdStep, IgLimit, IntegTime, HoldTime, DelayTime, DrainMinRng
TestParameter, Value, SMU3:MP	MPSMU, SMU1:MP	MPSMU, SMU2:MP	MPSMU, 80, -80, -2, 0, -80, -80, 0, 0.01, MEDIUM, 0, 0, 1uA
DutParameter, Name, Polarity, Temp, IdMax
DutParameter, Value, 1, 25, 0.01
MetaData, TestRecord.EntryPoint, true
MetaData, TestRecord.RecordTime, 07/11/2022 13:21:30
MetaData, TestRecord.TestTarget, HZ_1.12_1gL_3_ch5
MetaData, TestRecord.IterationIndex, 5
MetaData, TestRecord.Preservation, true
MetaData, TestRecord.Flag, 
MetaData, TestRecord.Remarks, 
MetaData, TestRecord.LinkKey, 4fd9bc40-7cf2-4820-ad91-7dab8ec7c7b2
Dimension1, 162, 162, 162, 162, 162, 162, 162
Dimension2, 1, 1, 1, 1, 1, 1, 1
DataName, Vgate, Vdrain, Vsource, Igate, Isource, Idrain, gm
DataValue, 80, -80, 0, 4.7324699999999992E-08, -1.1250399999999998E-08, -1.0419E-08, -2.3155E-09
DataValue, 78, -80, 0, 1.38934E-08, -5.38494E-09, -5.788E-09, -1.5082500000000003E-09
DataValue, 76, -80, 0, 9.1553999999999984E-09, -3.86372E-09, -4.3859999999999995E-09, -5.2250000000000011E-10
DataValue, 74, -80, 0, 7.29176E-09, -3.14178E-09, -3.698E-09, -2.5874999999999986E-10
DataValue, 72, -80, 0, 6.29931E-09, -2.73514E-09, -3.351E-09, -1.4449999999999997E-10
DataValue, 70, -80, 0, 5.68623E-09, -2.48007E-09, -3.12E-09, -1.0400000000000005E-10
DataValue, 68, -80, 0, 5.27774E-09, -2.26872E-09, -2.935E-09, -8.1750000000000054E-11
DataValue, 66, -80, 0, 4.96083E-09, -2.09822E-09, -2.7929999999999998E-09, -5.225E-11
DataValue, 64, -80, 0, 4.69575E-09, -1.97067E-09, -2.726E-09, -2.1999999999999924E-11
DataValue, 62, -80, 0, 4.50006E-09, -1.8466E-09, -2.705E-09, -1.8250000000000015E-11
DataValue, 60, -80, 0, 4.28918E-09, -1.71273E-09, -2.653E-09, -9.2500000000000456E-12
DataValue, 58, -80, 0, 4.15609E-09, -1.58486E-09, -2.668E-09, -1.9999999999999931E-12
DataValue, 56, -80, 0, 4.08497E-09, -1.45902E-09, -2.645E-09, 3.2500000000000663E-12
DataValue, 54, -80, 0, 3.92994E-09, -1.29808E-09, -2.681E-09, 1.0250000000000042E-11
DataValue, 52, -80, 0, 3.78849E-09, -1.12787E-09, -2.686E-09, 3.7499999999999922E-11
DataValue, 50, -80, 0, 3.68852E-09, -9.5896E-10, -2.831E-09, 8.0749999999999954E-11
DataValue, 48, -80, 0, 3.61441E-09, -7.3063E-10, -3.009E-09, 7.4000000000000055E-11
DataValue, 46, -80, 0, 3.43884E-09, -4.8125E-10, -3.127E-09, 5.875000000000003E-11
DataValue, 44, -80, 0, 3.37821E-09, -2.3322E-10, -3.244E-09, 1.0874999999999996E-10
DataValue, 42, -80, 0, 3.31252E-09, 1.412E-10, -3.562E-09, 1.5975E-10
DataValue, 40, -80, 0, 3.12907E-09, 5.5197E-10, -3.883E-09, 1.7150000000000008E-10
DataValue, 38, -80, 0, 3.0388E-09, 1.01853E-09, -4.248E-09, 2.0725000000000009E-10
DataValue, 36, -80, 0, 2.90831E-09, 1.55867E-09, -4.712E-09, 2.4899999999999986E-10
DataValue, 34, -80, 0, 2.79139E-09, 2.20845E-09, -5.244E-09, 3.0099999999999989E-10
DataValue, 32, -80, 0, 2.73213E-09, 2.94695E-09, -5.916E-09, 3.6550000000000003E-10
DataValue, 30, -80, 0, 2.57917E-09, 3.8428E-09, -6.706E-09, 4.375000000000002E-10
DataValue, 28, -80, 0, 2.44212E-09, 4.92747E-09, -7.666E-09, 5.2175E-10
DataValue, 26, -80, 0, 2.34857E-09, 6.16618E-09, -8.793E-09, 6.1899999999999962E-10
DataValue, 24, -80, 0, 2.21011E-09, 7.6799E-09, -1.0141999999999999E-08, 7.4200000000000013E-10
DataValue, 22, -80, 0, 2.02473E-09, 9.4827999999999987E-09, -1.1761E-08, 8.7625000000000015E-10
DataValue, 20, -80, 0, 1.84295E-09, 1.1556E-08, -1.3647E-08, 1.0422500000000002E-09
DataValue, 18, -80, 0, 1.62674E-09, 1.4003399999999998E-08, -1.593E-08, 1.2427499999999997E-09
DataValue, 16, -80, 0, 1.43118E-09, 1.6856399999999997E-08, -1.8618E-08, 1.4619999999999993E-09
DataValue, 14, -80, 0, 1.26772E-09, 2.0203999999999997E-08, -2.1777999999999998E-08, 1.7102500000000004E-09
DataValue, 12, -80, 0, 1.04349E-09, 2.4109499999999998E-08, -2.5459E-08, 1.9845000000000003E-09
DataValue, 10, -80, 0, 9.78871E-10, 2.8455199999999997E-08, -2.9716E-08, 2.2827500000000002E-09
DataValue, 8, -80, 0, 7.0040900000000006E-10, 3.33619E-08, -3.459E-08, 2.6882499999999993E-09
DataValue, 6, -80, 0, 4.71998E-10, 3.9860999999999995E-08, -4.0468999999999997E-08, 3.2074999999999991E-09
DataValue, 4, -80, 0, 2.12376E-10, 4.7029899999999993E-08, -4.742E-08, 3.7660000000000004E-09
DataValue, 2, -80, 0, -2.51276E-10, 5.5548599999999995E-08, -5.5533E-08, 4.40625E-09
DataValue, 0, -80, 0, -1.02378E-09, 6.56772E-08, -6.5045E-08, 5.1305000000000008E-09
DataValue, -2, -80, 0, -1.6605E-09, 7.7345E-08, -7.6055E-08, 5.9337499999999985E-09
DataValue, -4, -80, 0, -2.39815E-09, 9.07501E-08, -8.8779999999999992E-08, 6.82825E-09
DataValue, -6, -80, 0, -3.22108E-09, 1.06234E-07, -1.03368E-07, 7.8212500000000046E-09
DataValue, -8, -80, 0, -3.99114E-09, 1.23753E-07, -1.20065E-07, 8.8950000000000012E-09
DataValue, -10, -80, 0, -5.03225E-09, 1.4371399999999999E-07, -1.38948E-07, 1.0068749999999995E-08
DataValue, -12, -80, 0, -6.26759E-09, 1.66353E-07, -1.6034E-07, 1.1368E-08
DataValue, -14, -80, 0, -7.66955E-09, 1.91932E-07, -1.8442E-07, 1.28855E-08
DataValue, -16, -80, 0, -1.0215999999999999E-08, 2.21555E-07, -2.11882E-07, 1.4477499999999992E-08
DataValue, -18, -80, 0, -1.2354E-08, 2.5425699999999997E-07, -2.4233E-07, 1.60655E-08
DataValue, -20, -80, 0, -1.4798599999999999E-08, 2.90574E-07, -2.76144E-07, 1.7811750000000007E-08
DataValue, -22, -80, 0, -1.76145E-08, 3.30868E-07, -3.13577E-07, 1.9647000000000004E-08
DataValue, -24, -80, 0, -2.08116E-08, 3.75329E-07, -3.54732E-07, 2.1583500000000003E-08
DataValue, -26, -80, 0, -2.4486299999999998E-08, 4.2426799999999997E-07, -3.99911E-07, 2.3664499999999993E-08
DataValue, -28, -80, 0, -2.8625799999999997E-08, 4.77967E-07, -4.4939E-07, 2.5809000000000003E-08
DataValue, -30, -80, 0, -3.3273599999999996E-08, 5.36474E-07, -5.03147E-07, 2.8027499999999991E-08
DataValue, -32, -80, 0, -3.8485699999999995E-08, 6.00176E-07, -5.6149999999999994E-07, 3.0400999999999982E-08
DataValue, -34, -80, 0, -4.4365599999999993E-08, 6.69253E-07, -6.24751E-07, 3.2872000000000005E-08
DataValue, -36, -80, 0, -5.0729199999999995E-08, 7.43954E-07, -6.92988E-07, 3.537175E-08
DataValue, -38, -80, 0, -5.7625099999999994E-08, 8.24016E-07, -7.66238E-07, 3.7981749999999995E-08
DataValue, -40, -80, 0, -6.5074699999999989E-08, 9.10343E-07, -8.4491499999999994E-07, 4.0799750000000014E-08
DataValue, -42, -80, 0, -7.3056299999999992E-08, 1.00321E-06, -9.29437E-07, 4.4071250000000031E-08
DataValue, -44, -80, 0, -8.23234E-08, 1.1051200000000001E-06, -1.0212E-06, 4.7945750000000018E-08
DataValue, -46, -80, 0, -9.408239999999999E-08, 1.21507E-06, -1.12122E-06, 5.147250000000004E-08
DataValue, -48, -80, 0, -1.06329E-07, 1.33272E-06, -1.2270900000000002E-06, 5.437000000000003E-08
DataValue, -50, -80, 0, -1.1739999999999999E-07, 1.45606E-06, -1.3387000000000002E-06, 5.7215E-08
DataValue, -52, -80, 0, -1.29945E-07, 1.58609E-06, -1.4559500000000002E-06, 6.0149999999999966E-08
DataValue, -54, -80, 0, -1.43277E-07, 1.7228600000000002E-06, -1.5793E-06, 6.3142499999999985E-08
DataValue, -56, -80, 0, -1.57178E-07, 1.8660500000000001E-06, -1.7085200000000002E-06, 6.6085000000000052E-08
DataValue, -58, -80, 0, -1.71854E-07, 2.0160200000000004E-06, -1.8436400000000003E-06, 6.8950000000000045E-08
DataValue, -60, -80, 0, -1.87174E-07, 2.1719800000000004E-06, -1.9843200000000003E-06, 7.1885000000000011E-08
DataValue, -62, -80, 0, -2.03233E-07, 2.33508E-06, -2.1311800000000003E-06, 7.4912499999999937E-08
DataValue, -64, -80, 0, -2.20091E-07, 2.5048200000000003E-06, -2.28397E-06, 7.7919999999999946E-08
DataValue, -66, -80, 0, -2.37587E-07, 2.68138E-06, -2.44286E-06, 8.072000000000005E-08
DataValue, -68, -80, 0, -2.55875E-07, 2.8640300000000004E-06, -2.6068500000000003E-06, 8.3290000000000053E-08
DataValue, -70, -80, 0, -2.75318E-07, 3.05286E-06, -2.7760200000000003E-06, 8.6022499999999988E-08
DataValue, -72, -80, 0, -2.95676E-07, 3.24811E-06, -2.9509400000000002E-06, 8.8497500000000015E-08
DataValue, -74, -80, 0, -3.17392E-07, 3.4495700000000004E-06, -3.1300100000000004E-06, 9.0835000000000059E-08
DataValue, -76, -80, 0, -3.40194E-07, 3.65678E-06, -3.3142800000000005E-06, 9.3239999999999953E-08
DataValue, -78, -80, 0, -3.64094E-07, 3.86921E-06, -3.50297E-06, 9.5287499999999933E-08
DataValue, -80, -80, 0, -3.89517E-07, 4.0880600000000005E-06, -3.69543E-06, 8.4885000000000035E-08
DataValue, -80, -80, 0, -3.76309E-07, 4.05355E-06, -3.6727400000000003E-06, 1.3605499999999988E-07
DataValue, -78, -80, 0, -3.26018E-07, 3.7549500000000004E-06, -3.4233200000000005E-06, 1.2046999999999997E-07
DataValue, -76, -80, 0, -2.87455E-07, 3.4839800000000003E-06, -3.1908600000000004E-06, 1.1269750000000003E-07
DataValue, -74, -80, 0, -2.5558E-07, 3.2331300000000004E-06, -2.9725300000000003E-06, 1.0610500000000006E-07
DataValue, -72, -80, 0, -2.2772699999999999E-07, 2.99882E-06, -2.76644E-06, 1.0029000000000006E-07
DataValue, -70, -80, 0, -2.0273E-07, 2.77859E-06, -2.57137E-06, 9.4834999999999936E-08
DataValue, -68, -80, 0, -1.80379E-07, 2.5717500000000004E-06, -2.3871000000000004E-06, 8.9677499999999977E-08
DataValue, -66, -80, 0, -1.59946E-07, 2.37655E-06, -2.21266E-06, 8.4882500000000072E-08
DataValue, -64, -80, 0, -1.4130999999999999E-07, 2.1926100000000003E-06, -2.04757E-06, 8.021E-08
DataValue, -62, -80, 0, -1.24193E-07, 2.0195300000000003E-06, -1.8918200000000002E-06, 7.5772499999999959E-08
DataValue, -60, -80, 0, -1.08526E-07, 1.8564900000000003E-06, -1.7444800000000003E-06, 7.1505E-08
DataValue, -58, -80, 0, -9.5053799999999988E-08, 1.7040800000000002E-06, -1.6058000000000002E-06, 6.742250000000002E-08
DataValue, -56, -80, 0, -8.1810199999999987E-08, 1.5597800000000002E-06, -1.4747900000000002E-06, 6.3585000000000023E-08
DataValue, -54, -80, 0, -7.0004399999999991E-08, 1.4242400000000001E-06, -1.35146E-06, 5.9807500000000041E-08
DataValue, -52, -80, 0, -5.9109699999999995E-08, 1.2974800000000002E-06, -1.23556E-06, 5.61775E-08
DataValue, -50, -80, 0, -4.9178899999999994E-08, 1.1788900000000002E-06, -1.12675E-06, 5.2592499999999986E-08
DataValue, -48, -80, 0, -4.0265599999999996E-08, 1.0683E-06, -1.02519E-06, 4.8916000000000013E-08
DataValue, -46, -80, 0, -3.22038E-08, 9.66202E-07, -9.31086E-07, 4.5536000000000018E-08
DataValue, -44, -80, 0, -2.7959899999999998E-08, 8.73237E-07, -8.43046E-07, 4.262875E-08
DataValue, -42, -80, 0, -2.2876E-08, 7.85471E-07, -7.60571E-07, 3.9726999999999996E-08
DataValue, -40, -80, 0, -1.79117E-08, 7.03891E-07, -6.84138E-07, 3.6778750000000008E-08
DataValue, -38, -80, 0, -1.3214499999999999E-08, 6.28364E-07, -6.13456E-07, 3.3887500000000005E-08
DataValue, -36, -80, 0, -1.019454E-08, 5.60349E-07, -5.48588E-07, 3.118025E-08
DataValue, -34, -80, 0, -6.76953E-09, 4.96716E-07, -4.88735E-07, 2.8652750000000005E-08
DataValue, -32, -80, 0, -3.40711E-09, 4.38536E-07, -4.33977E-07, 2.6123500000000002E-08
DataValue, -30, -80, 0, -1.0556740000000002E-09, 3.8663999999999997E-07, -3.84241E-07, 2.3758499999999994E-08
DataValue, -28, -80, 0, 1.81306E-09, 3.38203E-07, -3.38943E-07, 2.1566250000000003E-08
DataValue, -26, -80, 0, 3.97033E-09, 2.95046E-07, -2.9797599999999997E-07, 1.9454750000000004E-08
DataValue, -24, -80, 0, 5.65718E-09, 2.56424E-07, -2.61124E-07, 1.746999999999999E-08
DataValue, -22, -80, 0, 7.23341E-09, 2.21949E-07, -2.28096E-07, 1.566825E-08
DataValue, -20, -80, 0, 9.0403E-09, 1.90629E-07, -1.98451E-07, 1.3969000000000004E-08
DataValue, -18, -80, 0, 1.00482E-08, 1.63292E-07, -1.7222E-07, 1.2358000000000004E-08
DataValue, -16, -80, 0, 1.0765899999999998E-08, 1.39233E-07, -1.49019E-07, 1.0910499999999997E-08
DataValue, -14, -80, 0, 1.14186E-08, 1.18169E-07, -1.28578E-07, 9.6009999999999978E-09
DataValue, -12, -80, 0, 1.1743599999999999E-08, 9.99192E-08, -1.10615E-07, 8.38925E-09
DataValue, -10, -80, 0, 1.2023E-08, 8.4027199999999986E-08, -9.5021E-08, 7.29175E-09
DataValue, -8, -80, 0, 1.203E-08, 7.038E-08, -8.1448E-08, 6.335E-09
DataValue, -6, -80, 0, 1.1991E-08, 5.86622E-08, -6.9681E-08, 5.4565E-09
DataValue, -4, -80, 0, 1.1906899999999998E-08, 4.8617399999999993E-08, -5.9622E-08, 4.6795000000000006E-09
DataValue, -2, -80, 0, 1.1794599999999999E-08, 4.01118E-08, -5.0963E-08, 3.9990000000000016E-09
DataValue, 0, -80, 0, 1.1562499999999999E-08, 3.29257E-08, -4.3625999999999996E-08, 3.38475E-09
DataValue, 2, -80, 0, 1.1333199999999999E-08, 2.6868199999999997E-08, -3.7424E-08, 2.8782499999999997E-09
DataValue, 4, -80, 0, 1.1042399999999999E-08, 2.17788E-08, -3.2113E-08, 2.446E-09
DataValue, 6, -80, 0, 1.0835199999999998E-08, 1.7528499999999997E-08, -2.7639999999999998E-08, 2.0557499999999992E-09
DataValue, 8, -80, 0, 1.0625299999999999E-08, 1.3938899999999998E-08, -2.389E-08, 1.7429999999999995E-09
DataValue, 10, -80, 0, 1.03517E-08, 1.09599E-08, -2.0668E-08, 1.4827500000000005E-09
DataValue, 12, -80, 0, 1.0085599999999998E-08, 8.4773999999999989E-09, -1.7959E-08, 1.2462500000000003E-09
DataValue, 14, -80, 0, 9.8465E-09, 6.57554E-09, -1.5683E-08, 1.0559999999999997E-09
DataValue, 16, -80, 0, 9.6562999999999986E-09, 4.92558E-09, -1.3735E-08, 8.9299999999999971E-10
DataValue, 18, -80, 0, 9.00151E-09, 3.59185E-09, -1.2111E-08, 7.5050000000000025E-10
DataValue, 20, -80, 0, 9.1069999999999984E-09, 2.27334E-09, -1.0733E-08, 6.4325000000000023E-10
DataValue, 22, -80, 0, 8.8537E-09, 1.37058E-09, -9.5379999999999991E-09, 5.42E-10
DataValue, 24, -80, 0, 8.7293999999999984E-09, 5.2771E-10, -8.565E-09, 4.944999999999999E-10
DataValue, 26, -80, 0, 8.15581E-09, -1.6105E-10, -7.56E-09, 4.0299999999999995E-10
DataValue, 28, -80, 0, 7.96973E-09, -6.4749E-10, -6.9529999999999995E-09, 2.9499999999999991E-10
DataValue, 30, -80, 0, 7.66393E-09, -1.04725E-09, -6.38E-09, 2.9499999999999991E-10
DataValue, 32, -80, 0, 8.00197E-09, -1.42979E-09, -5.773E-09, 2.5025000000000004E-10
DataValue, 34, -80, 0, 7.37795E-09, -1.59589E-09, -5.379E-09, 1.8625000000000006E-10
DataValue, 36, -80, 0, 7.18442E-09, -1.85608E-09, -5.028E-09, 1.6949999999999988E-10
DataValue, 38, -80, 0, 6.96546E-09, -2.01533E-09, -4.701E-09, 1.5149999999999994E-10
DataValue, 40, -80, 0, 6.82373E-09, -2.13683E-09, -4.422E-09, 1.3025000000000004E-10
DataValue, 42, -80, 0, 6.67262E-09, -2.23574E-09, -4.18E-09, 1.1174999999999995E-10
DataValue, 44, -80, 0, 6.53908E-09, -2.30574E-09, -3.975E-09, 1.0099999999999996E-10
DataValue, 46, -80, 0, 6.40115E-09, -2.35158E-09, -3.776E-09, 7.4000000000000055E-11
DataValue, 48, -80, 0, 6.26881E-09, -2.38927E-09, -3.679E-09, 6.3750000000000116E-11
DataValue, 50, -80, 0, 6.15137E-09, -2.40157E-09, -3.5209999999999997E-09, 7.35E-11
DataValue, 52, -80, 0, 6.0478E-09, -2.40637E-09, -3.3849999999999998E-09, 5.9249999999999976E-11
DataValue, 54, -80, 0, 5.93043E-09, -2.4019E-09, -3.284E-09, 4.4249999999999925E-11
DataValue, 56, -80, 0, 5.82145E-09, -2.39167E-09, -3.208E-09, 4.3749999999999978E-11
DataValue, 58, -80, 0, 5.71027E-09, -2.38165E-09, -3.109E-09, 4.1500000000000012E-11
DataValue, 60, -80, 0, 5.62978E-09, -2.3587E-09, -3.042E-09, 3.0999999999999996E-11
DataValue, 62, -80, 0, 5.52498E-09, -2.33804E-09, -2.985E-09, 2.6249999999999987E-11
DataValue, 64, -80, 0, 5.4781E-09, -2.30996E-09, -2.937E-09, 2.875000000000003E-11
DataValue, 66, -80, 0, 5.29116E-09, -2.27365E-09, -2.87E-09, 2.2500000000000077E-11
DataValue, 68, -80, 0, 5.2687E-09, -2.24444E-09, -2.8469999999999998E-09, 2.3499999999999971E-11
DataValue, 70, -80, 0, 5.02807E-09, -2.22643E-09, -2.776E-09, 2.824999999999998E-11
DataValue, 72, -80, 0, 5.17873E-09, -2.1844E-09, -2.734E-09, 1.8499999999999988E-11
DataValue, 74, -80, 0, 5.00502E-09, -2.15286E-09, -2.702E-09, 1.5250000000000025E-11
DataValue, 76, -80, 0, 4.94535E-09, -2.12513E-09, -2.6729999999999998E-09, 1.7250000000000018E-11
DataValue, 78, -80, 0, 4.92459E-09, -2.07265E-09, -2.633E-09, 2.1999999999999924E-11
DataValue, 80, -80, 0, 4.72235E-09, -2.06561E-09, -2.585E-09, 2.3999999999999917E-11
SetupTitle, FET Id-Vg
PrimitiveTest, I/V Sweep
TestParameter, Context.MainFrame, 4155C
TestParameter, Channel.UnitType, SMU, SMU, SMU
TestParameter, Channel.Unit, Gate, Source, Drain
TestParameter, Channel.IName, Igate, Isource, Idrain
TestParameter, Channel.VName, Vgate, Vsource, Vdrain
TestParameter, Channel.Mode, V, V, V
TestParameter, Channel.Func, VAR1, CONST, VAR2
TestParameter, Channel.Index, 
TestParameter, Channel.Time, 
TestParameter, Measurement.Port.Unit, Gate, Source, Drain
TestParameter, Measurement.Port.SeriesResistor, NONE, NONE, NONE
TestParameter, Measurement.Port.Filter, OFF, OFF, OFF
TestParameter, Measurement.Primary.Locus, Double
TestParameter, Measurement.Primary.Scale, LINEAR
TestParameter, Measurement.Primary.Start, VgStart*Polarity
TestParameter, Measurement.Primary.Stop, VgStop*Polarity
TestParameter, Measurement.Primary.Step, VgStep*Polarity
TestParameter, Measurement.Primary.Compliance, IgLimit
TestParameter, Measurement.Primary.PowerCompliance, 0
TestParameter, Measurement.Aborting.Condition, CONTINUE AT ANY
TestParameter, Measurement.PostOutput.Value, START
TestParameter, Measurement.PostOutput.Retention, OFF
TestParameter, Measurement.Secondary.Start, VdStart*Polarity
TestParameter, Measurement.Secondary.Count, abs((VdStop-VdStart)/VdStep)+1
TestParameter, Measurement.Secondary.Step, cond(VdStart,VdStop,abs(VdStep)*Polarity,-abs(VdStep)*Polarity)
TestParameter, Measurement.Secondary.Compliance, IdMax
TestParameter, Measurement.Secondary.PowerCompliance, 0
TestParameter, Measurement.Bias.Source, VgStart*Polarity, Vs*Polarity, VdStart*Polarity
TestParameter, Measurement.Bias.Compliance, IgLimit, IdMax, IdMax
TestParameter, Measurement.Monitor.Unit, SMU:=Gate, SMU:=Source, SMU:=Drain
TestParameter, Measurement.Monitor.Adc, HR ADC, HR ADC, HR ADC
TestParameter, Measurement.Monitor.RangingMode, LIMITED, LIMITED, LIMITED
TestParameter, Measurement.Monitor.RangeBoundary, 1nA, 1nA, DrainMinRng
TestParameter, Measurement.Monitor.RangeRating, BY FULL RANGE, BY FULL RANGE, BY FULL RANGE
TestParameter, Measurement.Monitor.RangeRatingCoeff, 50, 50, 50
TestParameter, Measurement.Timing.Hold, HoldTime
TestParameter, Measurement.Timing.Delay, DelayTime
TestParameter, Measurement.Adc.HighResolution.AutoZero, ON
TestParameter, Measurement.Adc.HighResolution.Mode, IntegMode
TestParameter, Measurement.Adc.HighResolution.Coeff, AdcFactor
TestParameter, Measurement.Ag16440ASelector.SemiconductorRelay.Channel1, DEFAULT
TestParameter, Measurement.Ag16440ASelector.SemiconductorRelay.Channel3, DEFAULT
TestParameter, Function.User.Name, gm
TestParameter, Function.User.Unit, S
TestParameter, Function.User.Definition, diff(Idrain,Vgate)
TestParameter, Output.Graph.Enabled, true
TestParameter, Output.Graph.AutoScaling, false
TestParameter, Output.Graph.XAxis.Data, Vgate
TestParameter, Output.Graph.XAxis.Scale, Linear
TestParameter, Output.Graph.XAxis.Left, VgStart*Polarity
TestParameter, Output.Graph.XAxis.Right, VgStop*Polarity
TestParameter, Output.Graph.XAxis.RunTimeAutoScale, false
TestParameter, Output.Graph.YAxis.Data, Idrain, Igate, Vsource
TestParameter, Output.Graph.YAxis.Scale, Linear, Linear, Linear
TestParameter, Output.Graph.YAxis.Bottom, -0.0001, -0.1, -2
TestParameter, Output.Graph.YAxis.Top, IdMax*Polarity, 0.1, 2
TestParameter, Output.Graph.YAxis.Group, , , 
TestParameter, Output.Graph.YAxis.RunTimeAutoScale, true, false, false
TestParameter, Output.List.Data, Vgate, Vdrain, Idrain, gm, Igate, Isource
TestParameter, AutoAnalysis.Interpolation, false
TestParameter, AutoAnalysis.Line1.Enabled, false
TestParameter, AutoAnalysis.Line1.Type, 1
TestParameter, AutoAnalysis.Line1.Fix, False
TestParameter, AutoAnalysis.Line1.YAxis, 0
TestParameter, AutoAnalysis.Line1.Point1.Type, 0
TestParameter, AutoAnalysis.Line1.Point1.XY.X, 
TestParameter, AutoAnalysis.Line1.Point1.XY.Y, 
TestParameter, AutoAnalysis.Line1.Point1.Data.Var, 
TestParameter, AutoAnalysis.Line1.Point1.Data.Condition, 
TestParameter, AutoAnalysis.Line1.Point1.Data.Start, false
TestParameter, AutoAnalysis.Line1.Point1.Data.StartVar, 
